EXPLAIN
TAG	EISPOT
TITLE	LABEL	Potentiostatic EIS	Test Identifier
DATE	LABEL	4/20/2021	Date
TIME	LABEL	12:37:49	Time
NOTES	NOTES	1	Notes...
	
PSTAT	PSTAT	REF3000-23108	Potentiostat
VDC	POTEN	0.00000E+000	T	DC Voltage (V)
FREQINIT	QUANT	1.00000E+006	Initial Freq. (Hz)
FREQFINAL	QUANT	1.00000E+000	Final Freq. (Hz)
PTSPERDEC	QUANT	1.00000E+001	Points/decade
VAC	QUANT	7.00000E+001	AC Voltage (mV rms)
AREA	QUANT	1.00000E+000	Sample Area (cm^2)
SPEED	SELECTOR	0	Optimize for:
ZGUESS	QUANT	1.00000E+002	Estimated Z (ohms)
EOC	QUANT	0	Open Circuit (V)
SEQUENCER	TOGGLE	TRUE	Run as Sequence
PSTATMODEL	IQUANT	5	Pstat Model
PSTATSECTION	LABEL	REF3000-23108	Pstat Section
PSTATSERIALNO	LABEL	23108	Pstat Serial Number
CTRLMODE	IQUANT	1	Control Mode
ELECTROMETER	IQUANT	0	RE=0 or CS=1
IESTAB	IQUANT	0	I/E Stability
CASPEED	IQUANT	3	Control Amp Speed
CONVENTION	IQUANT	1	Current Convention
ICHRANGE	IQUANT	2	Ich Range
ICHRANGEMODE	TOGGLE	F	Ich Auto Range
ICHOFFSETENABLE	TOGGLE	T	Ich Offset Enable
ICHOFFSET	QUANT	0	Ich Offset (V)
ICHFILTER	IQUANT	3	Ich Filter
VCHRANGE	IQUANT	2	Vch Range
VCHRANGEMODE	TOGGLE	F	Vch Auto Range
VCHOFFSETENABLE	TOGGLE	T	Vch Offset Enable
VCHOFFSET	QUANT	0	Vch Offset (V)
VCHFILTER	IQUANT	3	Vch Filter
ACHRANGE	IQUANT	2	Ach Range
ACHOFFSETENABLE	TOGGLE	F	Ach Offset Enable
ACHOFFSET	QUANT	0	Ach Offset (V)
ACHFILTER	IQUANT	1	Ach Filter
IERANGELOWERLIMIT	IQUANT	2	I/E Range Lower Limit
IERANGEMODE	TOGGLE	F	I/E AutoRange
IERANGE	IQUANT	11	I/E Range
POSFEEDENABLE	TOGGLE	F	Positive Feedback IR Comp
POSFEEDRESISTANCE	QUANT	0	Positive Feedback Resistance (ohm)
ACHSELECT	IQUANT	0	Ach Select
SENSECABLEID	IQUANT	14	Sense Cable ID
PWRCABLEID	IQUANT	7	Power Cable ID
DCCALDATE	LABEL	1/28/2020	DC Calibration Date
ACCALDATE	LABEL	1/28/2020	AC Calibration Date
THERMOSELECT	IQUANT	1	Thermo Select
FRAMEWORKVERSION	LABEL	7.8.2	Framework Version
INSTRUMENTVERSION	LABEL	4.40	Instrument Version
COMPLIANCEVOLTAGE	IQUANT	0	Compliance Voltage
ZCURVE	TABLE
	Pt	Time	Freq	Zreal	Zimag	Zsig	Zmod	Zphz	Idc	Vdc	IERange
	#	s	Hz	ohm	ohm	V	ohm	°	A	V	#
	0	4	1000078	6.633492	-474.5766	1	474.623	-89.19919	2.936083E-005	0.0002687	9
	1	4	794390.6	6.247593	-594.8292	1	594.8621	-89.39823	-2.121295E-005	0.0007959	9
	2	4	630984.4	3.584702	-750.0063	1	750.0149	-89.72615	1.022823E-005	-0.000889	9
	3	5	501234.4	27.47552	-961.513	1	961.905	-88.3632	-1.324002E-005	0.0095551	8
	4	5	398109.4	45.7199	-1206.551	1	1207.417	-87.82993	4.697431E-005	-0.0145212	8
	5	6	316265.6	34.27147	-1508.857	1	1509.247	-88.69884	-5.149117E-005	0.0200725	8
	6	6	251203.1	58.33182	-1884.371	1	1885.273	-88.22694	2.025143E-005	-0.0117979	8
	7	6	199546.9	32.91861	-2377.494	1	2377.722	-89.20674	1.442674E-007	0.0083667	8
	8	7	158578.1	39.48367	-2988.798	1	2989.058	-89.24313	8.662271E-007	-0.0097242	8
	9	7	125953.1	35.89683	-3763.099	1	3763.27	-89.45346	-4.288127E-005	0.0093338	8
	10	7	100078.1	48.2728	-4741.928	1	4742.174	-89.41675	-1.316615E-005	0.003281	8
	11	8	79453.13	45.08735	-5961.947	1	5962.117	-89.56671	-5.073205E-006	-0.0018039	8
	12	9	63140.62	55.38745	-7509.86	1	7510.064	-89.57743	-5.117514E-006	-0.0018229	8
	13	9	50203.12	484.3179	-9546.25	1	9558.53	-87.09566	-3.370154E-006	0.0129226	7
	14	9	39890.62	506.4523	-11972.87	1	11983.58	-87.57784	-3.688576E-006	0.0084484	7
	15	10	31640.63	466.2271	-15024.46	1	15031.7	-88.22261	2.839641E-006	-0.0039316	7
	16	10	25171.88	470.6496	-18850.04	1	18855.92	-88.56973	9.917998E-007	0.0048063	7
	17	11	20015.62	446.9835	-23695.06	1	23699.27	-88.9193	3.471006E-006	-0.0143643	7
	18	11	15890.62	503.6602	-29891.16	1	29895.4	-89.03467	-3.278529E-007	-0.0084136	7
	19	11	12609.37	581.6928	-37624.5	1	37628.99	-89.11425	-3.250766E-006	0.0044738	7
	20	12	10078.13	476.9882	-47082.08	1	47084.5	-89.41956	-1.049696E-006	0.0108212	7
	21	12	8015.625	421.1465	-59165	1	59166.5	-89.59216	-3.305685E-007	-0.0084175	7
	22	13	6328.125	553.3015	-74867.2	1	74869.25	-89.57657	1.985973E-006	0.0006301	7
	23	13	5015.625	327.1381	-94765.2	1	94765.76	-89.80221	-4.19891E-008	0.0082556	7
	24	14	3984.375	4814.531	-119914.6	1	120011.2	-87.70083	-1.113042E-007	0.0103025	6
	25	14	3170.956	5238.997	-150026.5	1	150118	-88.00002	-3.571256E-007	0.010099	6
	26	15	2527.573	4777.456	-188125.1	1	188185.7	-88.54528	-2.068479E-008	0.0080261	6
	27	15	1976.103	5599.056	-240544.5	1	240609.7	-88.66659	1.628155E-007	0.0014997	6
	28	15	1577.524	4517.073	-300354.8	1	300388.7	-89.13839	-3.338012E-007	0.012059	6
	29	16	1265.625	5509.196	-375047.9	1	375088.4	-89.15842	-2.776971E-007	0.0125631	6
	30	16	998.264	4418.242	-474034	1	474054.6	-89.46599	-4.018179E-009	-0.0087147	6
	31	17	796.875	4899.404	-592695.1	1	592715.4	-89.52638	3.314014E-007	-0.012846	6
	32	17	627.7902	-920.1292	-754488.4	1	754489	-90.06988	3.013416E-007	-0.0065116	6
	33	18	505.5147	4897.339	-936647.6	1	936660.4	-89.70042	-1.081807E-008	-0.0002191	6
	34	18	397.9953	49630.27	-1199692	1	1200719	-87.63107	-1.126198E-009	-0.0002422	5
	35	19	315.5048	52268.36	-1506416	1	1507323	-88.01279	-9.20902E-010	-0.0002664	5
	36	19	252.4038	51196.75	-1880575	1	1881271	-88.44057	-1.126363E-009	-0.0002684	5
	37	20	198.6229	43934.86	-2395630	1	2396033	-88.94933	-1.023696E-009	-0.0002623	5
	38	20	158.3615	57667	-2987908	1	2988465	-88.89433	-1.004142E-009	-0.0002386	5
	39	20	125.558	47974.69	-3778020	1	3778324	-89.27248	-1.059033E-009	-0.0002626	5
	40	21	100.4464	79597.53	-4672642	1	4673320	-89.02407	-1.139667E-009	-0.0002658	5
	41	21	79.00281	8574.186	-6141031	1	6141036	-89.92001	-1.01118E-009	-0.0002445	5
	42	22	63.3446	934094.3	-8451534	1	8502997	-83.69306	-9.801213E-011	-0.0002253	4
	43	22	49.86702	533091.4	-9.733326E+006	1	9.747914E+006	-86.86506	-1.093351E-010	-0.0002285	4
	44	23	39.72458	626281	-1.20489E+007	1	1.206516E+007	-87.02454	-9.914059E-011	-0.0002435	4
	45	23	31.6723	732112.3	-1.535652E+007	1	1.537397E+007	-87.27053	-6.195868E-011	-0.0002495	4
	46	24	24.93351	650919.8	-1.902996E+007	1	1.904109E+007	-88.04096	-1.20556E-010	-0.0002246	4
	47	24	19.86229	387973	-2.386377E+007	1	2.386692E+007	-89.06858	-1.026954E-010	-0.0002044	4
	48	24	15.83615	4386649	-3.019786E+007	1	3.05148E+007	-81.73483	-2.97457E-010	-0.0002043	4
	49	25	12.40079	-1303530	-3.67155E+007	1	3.673863E+007	-92.03335	-1.729194E-010	-0.0002403	4
	50	25	9.93114	-231253.3	-4.716978E+007	1	4.717034E+007	-90.28089	-1.036625E-009	-0.0002859	5
	51	26	7.944915	-513520.8	-5.948036E+007	1	5.948257E+007	-90.49465	-1.072385E-009	-0.0002465	5
	52	27	6.317385	441718.4	-7.447836E+007	1	7.447967E+007	-89.66019	-1.006061E-010	-0.0002279	4
	53	28	5.008013	5256817	-9.562204E+007	1	9.576642E+007	-86.85333	-7.577805E-012	-0.0002109	3
	54	29	3.945707	6020282	-1.219617E+008	1	1.221102E+008	-87.17406	-1.31758E-011	-0.0001986	3
	55	31	3.158693	5144220	-1.504561E+008	1	1.50544E+008	-88.04177	-8.490129E-012	-0.0002504	3
	56	32	2.504006	5247496	-1.893801E+008	1	1.894528E+008	-88.41281	-8.780573E-012	-0.0002074	3
	57	33	1.998082	5699255	-2.368336E+008	1	2.369022E+008	-88.62148	-9.1152E-012	-0.0003133	3
	58	35	1.584686	5186356	-2.984818E+008	1	2.985268E+008	-89.00454	-8.577619E-012	-0.0003234	3
	59	37	1.266892	5123702	-3.722117E+008	1	3.722469E+008	-89.21134	-8.597977E-012	-0.0002035	3
	60	40	0.999041	5898283	-4.723822E+008	1	4.724191E+008	-89.28463	-8.512427E-012	-0.0001276	3
