EXPLAIN
TAG	EISPOT
TITLE	LABEL	Potentiostatic EIS	Test Identifier
DATE	LABEL	4/20/2021	Date
TIME	LABEL	12:35:45	Time
NOTES	NOTES	1	Notes...
	
PSTAT	PSTAT	REF3000-23108	Potentiostat
VDC	POTEN	0.00000E+000	T	DC Voltage (V)
FREQINIT	QUANT	1.00000E+006	Initial Freq. (Hz)
FREQFINAL	QUANT	1.00000E+000	Final Freq. (Hz)
PTSPERDEC	QUANT	1.00000E+001	Points/decade
VAC	QUANT	7.00000E+001	AC Voltage (mV rms)
AREA	QUANT	1.00000E+000	Sample Area (cm^2)
SPEED	SELECTOR	0	Optimize for:
ZGUESS	QUANT	1.00000E+002	Estimated Z (ohms)
EOC	QUANT	0	Open Circuit (V)
SEQUENCER	TOGGLE	TRUE	Run as Sequence
PSTATMODEL	IQUANT	5	Pstat Model
PSTATSECTION	LABEL	REF3000-23108	Pstat Section
PSTATSERIALNO	LABEL	23108	Pstat Serial Number
CTRLMODE	IQUANT	1	Control Mode
ELECTROMETER	IQUANT	0	RE=0 or CS=1
IESTAB	IQUANT	0	I/E Stability
CASPEED	IQUANT	3	Control Amp Speed
CONVENTION	IQUANT	1	Current Convention
ICHRANGE	IQUANT	2	Ich Range
ICHRANGEMODE	TOGGLE	F	Ich Auto Range
ICHOFFSETENABLE	TOGGLE	T	Ich Offset Enable
ICHOFFSET	QUANT	0	Ich Offset (V)
ICHFILTER	IQUANT	3	Ich Filter
VCHRANGE	IQUANT	2	Vch Range
VCHRANGEMODE	TOGGLE	F	Vch Auto Range
VCHOFFSETENABLE	TOGGLE	T	Vch Offset Enable
VCHOFFSET	QUANT	0	Vch Offset (V)
VCHFILTER	IQUANT	3	Vch Filter
ACHRANGE	IQUANT	2	Ach Range
ACHOFFSETENABLE	TOGGLE	F	Ach Offset Enable
ACHOFFSET	QUANT	0	Ach Offset (V)
ACHFILTER	IQUANT	1	Ach Filter
IERANGELOWERLIMIT	IQUANT	2	I/E Range Lower Limit
IERANGEMODE	TOGGLE	F	I/E AutoRange
IERANGE	IQUANT	11	I/E Range
POSFEEDENABLE	TOGGLE	F	Positive Feedback IR Comp
POSFEEDRESISTANCE	QUANT	0	Positive Feedback Resistance (ohm)
ACHSELECT	IQUANT	0	Ach Select
SENSECABLEID	IQUANT	14	Sense Cable ID
PWRCABLEID	IQUANT	7	Power Cable ID
DCCALDATE	LABEL	1/28/2020	DC Calibration Date
ACCALDATE	LABEL	1/28/2020	AC Calibration Date
THERMOSELECT	IQUANT	1	Thermo Select
FRAMEWORKVERSION	LABEL	7.8.2	Framework Version
INSTRUMENTVERSION	LABEL	4.40	Instrument Version
COMPLIANCEVOLTAGE	IQUANT	0	Compliance Voltage
ZCURVE	TABLE
	Pt	Time	Freq	Zreal	Zimag	Zsig	Zmod	Zphz	Idc	Vdc	IERange
	#	s	Hz	ohm	ohm	V	ohm	°	A	V	#
	0	4	1000078	8.542605	-472.9054	1	472.9825	-88.96512	-1.64619E-005	0.0010568	9
	1	4	794390.6	6.444256	-594.502	1	594.5369	-89.37895	-6.146541E-006	0.0002486	9
	2	4	630984.4	4.532792	-752.326	1	752.3397	-89.65479	2.605951E-005	-7.332463E-005	9
	3	5	501234.4	29.22437	-959.273	1	959.718	-88.25501	-3.691209E-005	0.0164118	8
	4	5	398109.4	31.51736	-1202.289	1	1202.702	-88.49837	-9.790887E-006	-0.0063482	8
	5	6	316265.6	29.3134	-1508.493	1	1508.778	-88.88676	-2.863324E-005	0.0007642	8
	6	6	251203.1	30.84066	-1893.462	1	1893.713	-89.06685	1.009584E-005	-0.0112856	8
	7	6	199546.9	46.19155	-2381.135	1	2381.583	-88.88866	4.268244E-005	-0.0134189	8
	8	7	158578.1	33.85983	-2996.223	1	2996.415	-89.35254	-4.380824E-005	0.0094184	8
	9	7	125953.1	43.18382	-3756.478	1	3756.727	-89.34137	-9.954194E-006	0.0086849	8
	10	7	100078.1	42.49631	-4732.994	1	4733.185	-89.48557	1.099774E-005	-0.001801	8
	11	8	79453.13	40.95025	-5959.778	1	5959.918	-89.60632	7.727675E-006	1.372403E-005	8
	12	9	63140.62	44.58517	-7505.097	1	7505.229	-89.65963	3.563458E-006	-0.0048036	8
	13	9	50203.12	482.0773	-9560.05	1	9572.2	-87.11324	-1.462945E-006	-0.0043963	7
	14	9	39890.62	495.6712	-11962.47	1	11972.73	-87.62727	-1.040582E-006	0.0108153	7
	15	10	31640.63	469.0165	-15045.35	1	15052.66	-88.21447	3.474537E-006	-0.0143847	7
	16	10	25171.88	507.7369	-18891.06	1	18897.88	-88.46043	-3.309474E-007	-0.0083956	7
	17	11	20015.62	472.5894	-23746.26	1	23750.96	-88.85987	8.214543E-007	-0.0115993	7
	18	11	15890.62	563.4838	-29840.22	1	29845.54	-88.91819	-3.690316E-006	0.0084359	7
	19	11	12609.37	553.8995	-37610.97	1	37615.05	-89.15627	-3.718696E-006	0.011389	7
	20	12	10078.13	605.8829	-46942.72	1	46946.63	-89.26054	-3.686806E-006	0.0084651	7
	21	12	8015.625	718.4124	-59032.26	1	59036.63	-89.30276	-2.748358E-006	0.0131319	7
	22	13	6328.125	1079.325	-74846.8	1	74854.58	-89.17383	-3.35399E-006	0.0129152	7
	23	13	5015.625	681.7057	-94331.11	1	94333.57	-89.58595	-3.2516E-006	0.0044805	7
	24	14	3984.375	1253.939	-118503.8	1	118510.4	-89.39375	-3.255924E-006	0.0044686	7
	25	14	3170.956	1617.79	-151118.7	1	151127.3	-89.38665	-1.947703E-006	0.0124556	7
	26	15	2527.573	3029.043	-188043.7	1	188068.1	-89.07715	-3.577192E-008	0.0082706	7
	27	15	1976.103	4117.972	-239564.8	1	239600.2	-89.01522	2.417435E-007	-0.002487	6
	28	16	1577.524	4615.78	-300746.1	1	300781.5	-89.1207	3.313154E-007	-0.0128619	6
	29	16	1265.625	6131.645	-375215	1	375265.1	-89.06377	-3.337491E-007	0.0120592	6
	30	16	998.264	6191.585	-476222.8	1	476263	-89.25511	-2.760873E-007	0.0125682	6
	31	17	796.875	7104.494	-596799.3	1	596841.6	-89.31796	-1.984411E-007	0.0118121	6
	32	17	627.7902	9250.755	-757780.3	1	757836.8	-89.30058	3.010169E-007	-0.0064948	6
	33	18	505.5147	4613.977	-936827.9	1	936839.3	-89.71781	-1.085219E-008	-0.0002165	6
	34	18	397.9953	50213.44	-1199071	1	1200122	-87.60203	-1.117257E-009	-0.0002297	5
	35	19	315.5048	53584.9	-1507435	1	1508387	-87.96416	-1.186107E-009	-0.0002265	5
	36	19	252.4038	50094.82	-1880086	1	1880753	-88.47372	-1.024731E-009	-0.0002304	5
	37	19	198.6229	52183.25	-2399726	1	2400293	-88.75427	-1.107957E-009	-0.0002324	5
	38	20	158.3615	49815.37	-2986705	1	2987120	-89.04445	-1.204372E-009	-0.0002628	5
	39	20	125.558	49431.68	-3789682	1	3790004	-89.25269	-1.099802E-009	-0.0002316	5
	40	21	100.4464	19401.93	-4673441	1	4673481	-89.76214	-1.238635E-009	-0.000231	5
	41	21	79.00281	-62547.46	-6036342	1	6036666	-90.59367	-1.240977E-009	-0.0002287	5
	42	21	63.3446	-130987.7	-8246385	1	8247426	-90.91003	-1.178209E-011	-0.0002193	4
	43	22	49.86702	434392.5	-9.745162E+006	1	9.754839E+006	-87.44772	-7.805363E-011	-0.0002478	4
	44	23	39.72458	662402.5	-1.21839E+007	1	1.220189E+007	-86.88806	-6.098733E-011	-0.0002185	4
	45	23	31.6723	865764.6	-1.553809E+007	1	1.556219E+007	-86.81084	-1.567131E-011	-0.0002066	4
	46	23	24.93351	592014.3	-1.917964E+007	1	1.918877E+007	-88.23203	-9.066299E-011	-0.0002221	4
	47	24	19.86229	486368.7	-2.37329E+007	1	2.373788E+007	-88.82597	-1.05012E-010	-0.0001877	4
	48	24	15.83615	1137646	-3.377871E+007	1	3.379786E+007	-88.07104	7.295781E-011	-0.0002442	4
	49	24	12.40079	858374.5	-3.648272E+007	1	3.649282E+007	-88.65218	-1.17229E-009	-0.0002338	5
	50	25	9.93114	331196.4	-4.74661E+007	1	4.746725E+007	-89.60022	-1.108303E-009	-0.0002244	5
	51	26	7.944915	20519.19	-5.903162E+007	1	5.903162E+007	-89.98009	-1.121158E-009	-0.0002155	5
	52	27	6.317385	526367.2	-7.492847E+007	1	7.493032E+007	-89.59751	-1.059038E-010	-0.0001642	4
	53	28	5.008013	5183189	-9.581865E+007	1	9.595874E+007	-86.90367	-7.971571E-012	-0.0001807	3
	54	29	3.945707	5264226	-1.215372E+008	1	1.216511E+008	-87.51986	-1.108738E-011	-0.0002236	3
	55	30	3.158693	5325254	-1.506449E+008	1	1.50739E+008	-87.97546	-9.003054E-012	-0.0001755	3
	56	32	2.504006	5149958	-1.895035E+008	1	1.895735E+008	-88.44331	-8.999164E-012	-0.0001894	3
	57	33	1.998082	5288389	-2.370107E+008	1	2.370697E+008	-88.72178	-8.822929E-012	-0.0003119	3
	58	35	1.584686	5345521	-2.978168E+008	1	2.978648E+008	-88.97171	-8.471991E-012	-0.0001888	3
	59	37	1.266892	5743875	-3.732711E+008	1	3.733153E+008	-89.11841	-8.803836E-012	-0.0000993	3
	60	39	0.999041	4977400	-4.734916E+008	1	4.735178E+008	-89.39772	-9.005789E-012	-8.180685E-005	3
