EXPLAIN
TAG	EISPOT
TITLE	LABEL	Potentiostatic EIS	Test Identifier
DATE	LABEL	4/20/2021	Date
TIME	LABEL	12:36:26	Time
NOTES	NOTES	1	Notes...
	
PSTAT	PSTAT	REF3000-23108	Potentiostat
VDC	POTEN	0.00000E+000	T	DC Voltage (V)
FREQINIT	QUANT	1.00000E+006	Initial Freq. (Hz)
FREQFINAL	QUANT	1.00000E+000	Final Freq. (Hz)
PTSPERDEC	QUANT	1.00000E+001	Points/decade
VAC	QUANT	7.00000E+001	AC Voltage (mV rms)
AREA	QUANT	1.00000E+000	Sample Area (cm^2)
SPEED	SELECTOR	0	Optimize for:
ZGUESS	QUANT	1.00000E+002	Estimated Z (ohms)
EOC	QUANT	0	Open Circuit (V)
SEQUENCER	TOGGLE	TRUE	Run as Sequence
PSTATMODEL	IQUANT	5	Pstat Model
PSTATSECTION	LABEL	REF3000-23108	Pstat Section
PSTATSERIALNO	LABEL	23108	Pstat Serial Number
CTRLMODE	IQUANT	1	Control Mode
ELECTROMETER	IQUANT	0	RE=0 or CS=1
IESTAB	IQUANT	0	I/E Stability
CASPEED	IQUANT	3	Control Amp Speed
CONVENTION	IQUANT	1	Current Convention
ICHRANGE	IQUANT	2	Ich Range
ICHRANGEMODE	TOGGLE	F	Ich Auto Range
ICHOFFSETENABLE	TOGGLE	T	Ich Offset Enable
ICHOFFSET	QUANT	0	Ich Offset (V)
ICHFILTER	IQUANT	3	Ich Filter
VCHRANGE	IQUANT	2	Vch Range
VCHRANGEMODE	TOGGLE	F	Vch Auto Range
VCHOFFSETENABLE	TOGGLE	T	Vch Offset Enable
VCHOFFSET	QUANT	0	Vch Offset (V)
VCHFILTER	IQUANT	3	Vch Filter
ACHRANGE	IQUANT	2	Ach Range
ACHOFFSETENABLE	TOGGLE	F	Ach Offset Enable
ACHOFFSET	QUANT	0	Ach Offset (V)
ACHFILTER	IQUANT	1	Ach Filter
IERANGELOWERLIMIT	IQUANT	2	I/E Range Lower Limit
IERANGEMODE	TOGGLE	F	I/E AutoRange
IERANGE	IQUANT	11	I/E Range
POSFEEDENABLE	TOGGLE	F	Positive Feedback IR Comp
POSFEEDRESISTANCE	QUANT	0	Positive Feedback Resistance (ohm)
ACHSELECT	IQUANT	0	Ach Select
SENSECABLEID	IQUANT	14	Sense Cable ID
PWRCABLEID	IQUANT	7	Power Cable ID
DCCALDATE	LABEL	1/28/2020	DC Calibration Date
ACCALDATE	LABEL	1/28/2020	AC Calibration Date
THERMOSELECT	IQUANT	1	Thermo Select
FRAMEWORKVERSION	LABEL	7.8.2	Framework Version
INSTRUMENTVERSION	LABEL	4.40	Instrument Version
COMPLIANCEVOLTAGE	IQUANT	0	Compliance Voltage
ZCURVE	TABLE
	Pt	Time	Freq	Zreal	Zimag	Zsig	Zmod	Zphz	Idc	Vdc	IERange
	#	s	Hz	ohm	ohm	V	ohm	°	A	V	#
	0	4	1000078	8.318103	-472.4216	1	472.4948	-88.99128	-1.709831E-005	0.0010386	9
	1	4	794390.6	5.783816	-595.8213	1	595.8494	-89.44383	1.566772E-005	0.0007152	9
	2	4	630984.4	3.849473	-749.9822	1	749.9921	-89.70592	1.960982E-006	-0.0017482	9
	3	5	501234.4	43.36533	-966.74	1	967.712	-87.43159	4.76468E-005	-0.0152353	8
	4	5	398109.4	29.74957	-1205.122	1	1205.489	-88.58588	-3.440461E-005	0.0007147	8
	5	6	316265.6	31.50838	-1508.08	1	1508.409	-88.80309	-2.71635E-005	0.0007364	8
	6	6	251203.1	29.00469	-1893.697	1	1893.919	-89.12251	1.203099E-005	-0.0075944	8
	7	6	199546.9	32.7984	-2378.076	1	2378.302	-89.20982	6.079913E-007	-0.0098542	8
	8	7	158578.1	31.07149	-2992.38	1	2992.541	-89.40509	2.547871E-005	-0.0007377	8
	9	7	125953.1	40.43042	-3757.56	1	3757.778	-89.38354	-2.940926E-005	0.0147238	8
	10	7	100078.1	42.15109	-4742.097	1	4742.284	-89.49073	-1.017745E-005	0.0008046	8
	11	8	79453.13	51.84622	-5958.961	1	5959.187	-89.50151	7.757653E-006	5.051814E-006	8
	12	9	63140.62	44.11007	-7495.961	1	7496.091	-89.66285	1.106085E-005	-0.0018324	8
	13	9	50203.12	38.63609	-9438.668	1	9438.747	-89.76546	1.096356E-005	-0.0057937	8
	14	10	39890.62	28.4472	-11846.31	1	11846.34	-89.86241	-2.364172E-006	0.0039644	8
	15	10	31640.63	485.0585	-15052.86	1	15060.67	-88.15436	8.228421E-007	-0.0116067	7
	16	10	25171.88	536.1455	-18885.75	1	18893.36	-88.37387	-3.68575E-006	0.0084386	7
	17	11	20015.62	539.4355	-23729.07	1	23735.2	-88.69772	-2.745424E-006	0.0131324	7
	18	11	15890.62	509.2176	-29803.86	1	29808.21	-89.02116	2.832131E-006	-0.0039194	7
	19	12	12609.37	516.5662	-37616.62	1	37620.17	-89.21324	-3.279098E-007	-0.0084152	7
	20	12	10078.13	533.0974	-47246.98	1	47249.99	-89.35355	9.921722E-007	0.0048018	7
	21	13	8015.625	463.7396	-58814.98	1	58816.81	-89.54825	1.992817E-006	0.0006051	7
	22	13	6328.125	344.3852	-74874.54	1	74875.33	-89.73647	1.892237E-006	-0.0138242	7
	23	14	5015.625	531.473	-94891.39	1	94892.88	-89.6791	8.250823E-007	-0.0116156	7
	24	14	3984.375	5011.186	-119746.8	1	119851.6	-87.60368	-2.889781E-007	0.0030823	6
	25	14	3170.956	4980.136	-150109.5	1	150192.1	-88.09982	2.891796E-007	-0.0140964	6
	26	15	2527.573	4972.505	-187907.8	1	187973.6	-88.48417	3.0093E-007	-0.0065018	6
	27	15	1976.103	4890.971	-240593.5	1	240643.2	-88.83541	1.629898E-007	0.0014895	6
	28	16	1577.524	5437.179	-301389.5	1	301438.5	-88.96648	7.326424E-008	0.0050477	6
	29	16	1265.625	4329.646	-373783.1	1	373808.2	-89.33636	2.089445E-007	-0.0135825	6
	30	16	998.264	4541.848	-473811.5	1	473833.3	-89.45079	-3.404909E-007	0.0069736	6
	31	17	796.875	4852.918	-593003.4	1	593023.3	-89.53112	-2.889224E-007	0.0030899	6
	32	17	627.7902	8362.154	-759142.1	1	759188.2	-89.3689	-2.001194E-007	0.011802	6
	33	18	505.5147	4820.803	-936903.1	1	936915.5	-89.70519	-1.063067E-008	-0.0001968	6
	34	19	397.9953	50946.49	-1198838	1	1199920	-87.56659	-1.062115E-009	-0.000234	5
	35	19	315.5048	54155.8	-1508956	1	1509928	-87.94456	-1.007458E-009	-0.0002638	5
	36	19	252.4038	53086.89	-1881179	1	1881927	-88.38354	-9.663471E-010	-0.0002358	5
	37	20	198.6229	48034.8	-2379188	1	2379673	-88.84338	-1.125573E-009	-0.0002358	5
	38	20	158.3615	56946.14	-2992707	1	2993249	-88.90989	-9.413352E-010	-0.0002819	5
	39	21	125.558	63664.27	-3772216	1	3772753	-89.0331	-1.105488E-009	-0.0002263	5
	40	21	100.4464	-2004.383	-4772018	1	4772019	-90.02406	-1.046426E-008	-0.0002184	6
	41	22	79.00281	87465.97	-5867255	1	5867907	-89.14593	-1.00372E-009	-0.000256	5
	42	22	63.3446	144288.9	-6906159	1	6907667	-88.80311	-1.208573E-010	-0.0002545	4
	43	23	49.86702	396619.5	-9.504494E+006	1	9.512766E+006	-87.61045	-8.48349E-011	-0.0002144	4
	44	24	39.72458	353438.4	-1.205551E+007	1	1.206069E+007	-88.32071	-8.13013E-011	-0.0002057	4
	45	24	31.6723	93633.52	-1.510535E+007	1	1.510564E+007	-89.64484	-5.322912E-011	-0.0002493	4
	46	24	24.93351	686622.9	-1.908795E+007	1	1.910029E+007	-87.93987	-8.531292E-011	-0.0002092	4
	47	25	19.86229	-108995	-2.416121E+007	1	2.416146E+007	-90.25847	-4.622944E-011	-0.0002369	4
	48	25	15.83615	-2610798	-3.05938E+007	1	3.0705E+007	-94.87766	5.361029E-011	-0.0002408	4
	49	25	12.40079	-2987304	-4.166541E+007	1	4.177236E+007	-94.10094	-2.439769E-010	-0.0002543	4
	50	26	9.93114	-315747	-4.719236E+007	1	4.719341E+007	-90.38334	-1.094994E-009	-0.0002254	5
	51	27	7.944915	1866297	-5.779681E+007	1	5.782693E+007	-88.15053	-1.061877E-009	-0.0002242	5
	52	27	6.317385	494662.5	-7.482502E+007	1	7.482665E+007	-89.62123	-1.008195E-010	-0.0002301	4
	53	29	5.008013	5355442	-9.53926E+007	1	9.554281E+007	-86.78673	-1.003361E-011	-0.0001917	3
	54	30	3.945707	5993016	-1.209554E+008	1	1.211038E+008	-87.16347	-5.906105E-012	-0.000235	3
	55	31	3.158693	4915975	-1.508634E+008	1	1.509435E+008	-88.13364	-7.533343E-012	-0.0001497	3
	56	33	2.504006	5239624	-1.893996E+008	1	1.894721E+008	-88.41535	-8.785339E-012	-0.0001847	3
	57	34	1.998082	5264622	-2.366944E+008	1	2.36753E+008	-88.72582	-8.474619E-012	-0.0002432	3
	58	36	1.584686	5767033	-2.981785E+008	1	2.982342E+008	-88.89199	-8.456762E-012	-9.349722E-005	3
	59	38	1.266892	5101483	-3.732274E+008	1	3.732622E+008	-89.2169	-8.758979E-012	-8.752826E-005	3
	60	40	0.999041	4407910	-4.723235E+008	1	4.723441E+008	-89.46531	-8.979148E-012	-0.0001224	3
