EXPLAIN
TAG	EISPOT
TITLE	LABEL	Potentiostatic EIS	Test Identifier
DATE	LABEL	4/20/2021	Date
TIME	LABEL	12:37:08	Time
NOTES	NOTES	1	Notes...
	
PSTAT	PSTAT	REF3000-23108	Potentiostat
VDC	POTEN	0.00000E+000	T	DC Voltage (V)
FREQINIT	QUANT	1.00000E+006	Initial Freq. (Hz)
FREQFINAL	QUANT	1.00000E+000	Final Freq. (Hz)
PTSPERDEC	QUANT	1.00000E+001	Points/decade
VAC	QUANT	7.00000E+001	AC Voltage (mV rms)
AREA	QUANT	1.00000E+000	Sample Area (cm^2)
SPEED	SELECTOR	0	Optimize for:
ZGUESS	QUANT	1.00000E+002	Estimated Z (ohms)
EOC	QUANT	0	Open Circuit (V)
SEQUENCER	TOGGLE	TRUE	Run as Sequence
PSTATMODEL	IQUANT	5	Pstat Model
PSTATSECTION	LABEL	REF3000-23108	Pstat Section
PSTATSERIALNO	LABEL	23108	Pstat Serial Number
CTRLMODE	IQUANT	1	Control Mode
ELECTROMETER	IQUANT	0	RE=0 or CS=1
IESTAB	IQUANT	0	I/E Stability
CASPEED	IQUANT	3	Control Amp Speed
CONVENTION	IQUANT	1	Current Convention
ICHRANGE	IQUANT	2	Ich Range
ICHRANGEMODE	TOGGLE	F	Ich Auto Range
ICHOFFSETENABLE	TOGGLE	T	Ich Offset Enable
ICHOFFSET	QUANT	0	Ich Offset (V)
ICHFILTER	IQUANT	3	Ich Filter
VCHRANGE	IQUANT	2	Vch Range
VCHRANGEMODE	TOGGLE	F	Vch Auto Range
VCHOFFSETENABLE	TOGGLE	T	Vch Offset Enable
VCHOFFSET	QUANT	0	Vch Offset (V)
VCHFILTER	IQUANT	3	Vch Filter
ACHRANGE	IQUANT	2	Ach Range
ACHOFFSETENABLE	TOGGLE	F	Ach Offset Enable
ACHOFFSET	QUANT	0	Ach Offset (V)
ACHFILTER	IQUANT	1	Ach Filter
IERANGELOWERLIMIT	IQUANT	2	I/E Range Lower Limit
IERANGEMODE	TOGGLE	F	I/E AutoRange
IERANGE	IQUANT	11	I/E Range
POSFEEDENABLE	TOGGLE	F	Positive Feedback IR Comp
POSFEEDRESISTANCE	QUANT	0	Positive Feedback Resistance (ohm)
ACHSELECT	IQUANT	0	Ach Select
SENSECABLEID	IQUANT	14	Sense Cable ID
PWRCABLEID	IQUANT	7	Power Cable ID
DCCALDATE	LABEL	1/28/2020	DC Calibration Date
ACCALDATE	LABEL	1/28/2020	AC Calibration Date
THERMOSELECT	IQUANT	1	Thermo Select
FRAMEWORKVERSION	LABEL	7.8.2	Framework Version
INSTRUMENTVERSION	LABEL	4.40	Instrument Version
COMPLIANCEVOLTAGE	IQUANT	0	Compliance Voltage
ZCURVE	TABLE
	Pt	Time	Freq	Zreal	Zimag	Zsig	Zmod	Zphz	Idc	Vdc	IERange
	#	s	Hz	ohm	ohm	V	ohm	°	A	V	#
	0	4	1000078	8.988972	-472.551	1	472.6365	-88.91024	-1.258913E-007	0.0010276	9
	1	4	794390.6	6.148245	-594.5709	1	594.6027	-89.40755	6.150355E-006	-0.0017385	9
	2	4	630984.4	4.088957	-750.1119	1	750.1231	-89.68768	1.826846E-005	-0.0007928	9
	3	5	501234.4	27.42037	-963.443	1	963.833	-88.36976	-3.419703E-005	0.0007336	8
	4	5	398109.4	31.13035	-1204.29	1	1204.692	-88.51926	-4.328037E-005	0.0098691	8
	5	6	316265.6	32.02612	-1507.158	1	1507.498	-88.78268	3.133471E-006	0.0085298	8
	6	6	251203.1	57.41768	-1891.607	1	1892.478	-88.26138	3.562324E-005	-0.0154782	8
	7	6	199546.9	32.07998	-2380.671	1	2380.887	-89.22797	2.487145E-005	-0.00079	8
	8	7	158578.1	28.15579	-2994.45	1	2994.583	-89.46128	8.539231E-006	-0.0109409	8
	9	7	125953.1	27.13981	-3763.033	1	3763.131	-89.58678	1.07473E-005	-0.0047093	8
	10	8	100078.1	34.98727	-4733.528	1	4733.658	-89.57652	7.834882E-006	-0.0056043	8
	11	8	79453.13	46.40534	-5957.767	1	5957.947	-89.55373	1.106469E-005	-0.0018209	8
	12	8	63140.62	35.54749	-7502.957	1	7503.041	-89.72855	1.273133E-005	-0.005331	8
	13	9	50203.12	30.18996	-9426.405	1	9426.454	-89.8165	1.26648E-005	-0.0032299	8
	14	9	39890.62	90.72318	-11859.14	1	11859.49	-89.56169	-7.160783E-006	0.005167	8
	15	10	31640.63	506.1858	-15048.82	1	15057.33	-88.07351	-3.714535E-006	0.011391	7
	16	10	25171.88	481.054	-18886.31	1	18892.44	-88.54093	8.25844E-007	-0.0116233	7
	17	10	20015.62	445.6619	-23746.14	1	23750.33	-88.92481	-4.598298E-008	0.0082631	7
	18	11	15890.62	617.6538	-29858.42	1	29864.81	-88.81494	-1.951769E-006	0.0124505	7
	19	11	12609.37	563.0338	-37622.95	1	37627.16	-89.14262	-1.465877E-006	-0.0044063	7
	20	12	10078.13	661.2026	-46988.67	1	46993.32	-89.19382	-1.479159E-006	-0.0044244	7
	21	12	8015.625	704.9561	-59316.95	1	59321.13	-89.3191	-1.030796E-006	0.0108079	7
	22	12	6328.125	895.0623	-74977.33	1	74982.67	-89.31605	-3.253116E-006	0.0044637	7
	23	13	5015.625	687.1801	-94576.29	1	94578.79	-89.5837	-1.475212E-006	-0.004422	7
	24	13	3984.375	614.6092	-119032.1	1	119033.7	-89.70416	-2.821475E-008	0.0082641	7
	25	14	3170.956	5034.384	-150249.2	1	150333.5	-88.08092	2.408223E-007	-0.0024596	6
	26	14	2527.573	4865.236	-187880.3	1	187943.3	-88.51663	2.086459E-007	-0.0135833	6
	27	14	1976.103	5016.749	-240289.8	1	240342.2	-88.80396	-3.341725E-007	0.0120537	6
	28	15	1577.524	4985.653	-300819	1	300860.3	-89.05049	1.051864E-007	-0.0115785	6
	29	15	1265.625	4121.879	-376011.8	1	376034.4	-89.37194	1.632466E-007	0.0014792	6
	30	16	998.264	6092.524	-474077.8	1	474117	-89.26372	-3.340806E-007	0.0120595	6
	31	16	796.875	6578.701	-591640.5	1	591677.1	-89.36293	-2.89162E-007	0.003085	6
	32	17	627.7902	4868.098	-754197.6	1	754213.3	-89.63018	-3.327218E-007	0.0120636	6
	33	17	505.5147	4747.781	-936730.7	1	936742.8	-89.7096	-1.067096E-008	-0.0001981	6
	34	18	397.9953	49444.27	-1199472	1	1200491	-87.63951	-1.055613E-009	-0.0002375	5
	35	18	315.5048	51362.55	-1510743	1	1511616	-88.0528	-1.213268E-009	-0.0002372	5
	36	18	252.4038	53542.46	-1880339	1	1881101	-88.36895	-1.046067E-009	-0.0002768	5
	37	19	198.6229	60383.47	-2396787	1	2397548	-88.55682	-1.077012E-009	-0.0002706	5
	38	19	158.3615	43113.29	-3001238	1	3001548	-89.17699	-1.15432E-009	-0.0002333	5
	39	20	125.558	58101.77	-3789227	1	3789672	-89.12153	-1.115209E-009	-0.0002371	5
	40	20	100.4464	12022.21	-4663654	1	4663670	-89.8523	-1.103476E-008	-0.0002016	6
	41	21	79.00281	133446.9	-5882889	1	5884403	-88.70053	-9.96885E-010	-0.0002686	5
	42	21	63.3446	510253.8	-6872322	1	6891239	-85.75372	-1.812522E-010	-0.0002371	4
	43	22	49.86702	540646.3	-9462759	1	9478191	-86.73001	-7.299854E-011	-0.0002477	4
	44	23	39.72458	409899.9	-1.190468E+007	1	1.191174E+007	-88.02798	-8.578221E-011	-0.0002177	4
	45	23	31.6723	175503.3	-1.455882E+007	1	1.455987E+007	-89.30935	-1.321919E-011	-0.0002362	4
	46	23	24.93351	475400	-1.904598E+007	1	1.905192E+007	-88.57016	-1.086621E-010	-0.000212	4
	47	24	19.86229	1133697	-2.420537E+007	1	2.42319E+007	-87.31842	-4.578811E-011	-0.0002504	4
	48	24	15.83615	-3555682	-3.124134E+007	1	3.144303E+007	-96.4931	-3.132425E-010	-0.0002058	4
	49	24	12.40079	-2992890	-4.208108E+007	1	4.218737E+007	-94.06814	4.667833E-011	-0.0002071	4
	50	25	9.93114	1671841	-4.73031E+007	1	4.733264E+007	-87.97583	-9.85058E-010	-0.0002783	5
	51	26	7.944915	-146233.4	-6.002874E+007	1	6.002892E+007	-90.13957	-1.030316E-009	-0.0002713	5
	52	26	6.317385	428647	-7.478978E+007	1	7.479101E+007	-89.67162	-1.024314E-010	-0.0001773	4
	53	28	5.008013	5310043	-9.526007E+007	1	9.540795E+007	-86.80949	-5.766267E-012	-0.0002263	3
	54	29	3.945707	6245590	-1.198992E+008	1	1.200617E+008	-87.01814	-1.272431E-011	-0.0002113	3
	55	30	3.158693	5269151	-1.503586E+008	1	1.504509E+008	-87.99296	-7.889253E-012	-0.0002374	3
	56	32	2.504006	5296729	-1.894756E+008	1	1.895496E+008	-88.39874	-8.861234E-012	-0.0002195	3
	57	33	1.998082	5076425	-2.3698E+008	1	2.370343E+008	-88.77283	-8.975066E-012	-0.0001012	3
	58	35	1.584686	5264894	-2.978244E+008	1	2.97871E+008	-88.98724	-9.309387E-012	-0.0001931	3
	59	37	1.266892	5711542	-3.728199E+008	1	3.728637E+008	-89.12231	-9.017675E-012	-0.0002833	3
	60	39	0.999041	5032596	-4.736516E+008	1	4.736783E+008	-89.39125	-8.664622E-012	-0.0002967	3
