EXPLAIN
TAG	EISPOT
TITLE	LABEL	Potentiostatic EIS	Test Identifier
DATE	LABEL	4/20/2021	Date
TIME	LABEL	12:38:31	Time
NOTES	NOTES	1	Notes...
	
PSTAT	PSTAT	REF3000-23108	Potentiostat
VDC	POTEN	0.00000E+000	T	DC Voltage (V)
FREQINIT	QUANT	1.00000E+006	Initial Freq. (Hz)
FREQFINAL	QUANT	1.00000E+000	Final Freq. (Hz)
PTSPERDEC	QUANT	1.00000E+001	Points/decade
VAC	QUANT	7.00000E+001	AC Voltage (mV rms)
AREA	QUANT	1.00000E+000	Sample Area (cm^2)
SPEED	SELECTOR	0	Optimize for:
ZGUESS	QUANT	1.00000E+002	Estimated Z (ohms)
EOC	QUANT	0	Open Circuit (V)
SEQUENCER	TOGGLE	TRUE	Run as Sequence
PSTATMODEL	IQUANT	5	Pstat Model
PSTATSECTION	LABEL	REF3000-23108	Pstat Section
PSTATSERIALNO	LABEL	23108	Pstat Serial Number
CTRLMODE	IQUANT	1	Control Mode
ELECTROMETER	IQUANT	0	RE=0 or CS=1
IESTAB	IQUANT	0	I/E Stability
CASPEED	IQUANT	3	Control Amp Speed
CONVENTION	IQUANT	1	Current Convention
ICHRANGE	IQUANT	2	Ich Range
ICHRANGEMODE	TOGGLE	F	Ich Auto Range
ICHOFFSETENABLE	TOGGLE	T	Ich Offset Enable
ICHOFFSET	QUANT	0	Ich Offset (V)
ICHFILTER	IQUANT	3	Ich Filter
VCHRANGE	IQUANT	2	Vch Range
VCHRANGEMODE	TOGGLE	F	Vch Auto Range
VCHOFFSETENABLE	TOGGLE	T	Vch Offset Enable
VCHOFFSET	QUANT	0	Vch Offset (V)
VCHFILTER	IQUANT	3	Vch Filter
ACHRANGE	IQUANT	2	Ach Range
ACHOFFSETENABLE	TOGGLE	F	Ach Offset Enable
ACHOFFSET	QUANT	0	Ach Offset (V)
ACHFILTER	IQUANT	1	Ach Filter
IERANGELOWERLIMIT	IQUANT	2	I/E Range Lower Limit
IERANGEMODE	TOGGLE	F	I/E AutoRange
IERANGE	IQUANT	11	I/E Range
POSFEEDENABLE	TOGGLE	F	Positive Feedback IR Comp
POSFEEDRESISTANCE	QUANT	0	Positive Feedback Resistance (ohm)
ACHSELECT	IQUANT	0	Ach Select
SENSECABLEID	IQUANT	14	Sense Cable ID
PWRCABLEID	IQUANT	7	Power Cable ID
DCCALDATE	LABEL	1/28/2020	DC Calibration Date
ACCALDATE	LABEL	1/28/2020	AC Calibration Date
THERMOSELECT	IQUANT	1	Thermo Select
FRAMEWORKVERSION	LABEL	7.8.2	Framework Version
INSTRUMENTVERSION	LABEL	4.40	Instrument Version
COMPLIANCEVOLTAGE	IQUANT	0	Compliance Voltage
ZCURVE	TABLE
	Pt	Time	Freq	Zreal	Zimag	Zsig	Zmod	Zphz	Idc	Vdc	IERange
	#	s	Hz	ohm	ohm	V	ohm	°	A	V	#
	0	3	1000078	8.721189	-477.7796	1	477.8592	-88.95426	3.754925E-005	-0.0007011	9
	1	3	794390.6	6.275082	-594.8389	1	594.8719	-89.3956	1.691022E-006	-0.0015008	9
	2	4	630984.4	4.889031	-749.9851	1	750.001	-89.6265	-6.545295E-005	0.00143	9
	3	4	501234.4	27.75274	-962.678	1	963.078	-88.34869	2.30296E-005	0.0051846	8
	4	4	398109.4	35.34534	-1206.83	1	1207.347	-88.32241	3.835774E-005	-0.0084341	8
	5	5	316265.6	35.88469	-1506.448	1	1506.875	-88.63543	-5.110654E-005	0.0201093	8
	6	5	251203.1	33.20714	-1893.757	1	1894.048	-88.99541	-4.217129E-005	0.0094696	8
	7	6	199546.9	47.57179	-2379.687	1	2380.162	-88.85477	4.392404E-005	-0.01343	8
	8	6	158578.1	28.72212	-2994.108	1	2994.246	-89.45039	1.019115E-005	-0.0047311	8
	9	6	125953.1	25.8682	-3766.625	1	3766.714	-89.60651	1.067795E-005	-0.0072925	8
	10	7	100078.1	43.89411	-4729.48	1	4729.684	-89.46825	7.81295E-006	1.909857E-005	8
	11	7	79453.13	35.64095	-5963.672	1	5963.779	-89.65759	1.09042E-005	-0.0057706	8
	12	8	63140.62	49.91642	-7499.303	1	7499.469	-89.61864	7.762536E-006	-2.901244E-006	8
	13	8	50203.12	48.80487	-9427.058	1	9427.184	-89.70338	-5.134876E-006	-0.0018376	8
	14	9	39890.62	506.7989	-11975.28	1	11986	-87.57666	-3.689765E-006	0.0084564	7
	15	9	31640.63	469.6196	-15036.38	1	15043.71	-88.21111	3.663394E-006	-0.0120391	7
	16	9	25171.88	493.217	-18885.78	1	18892.22	-88.50401	8.243478E-007	-0.0116133	7
	17	10	20015.62	508.099	-23739.65	1	23745.09	-88.77389	-1.95247E-006	0.0124491	7
	18	10	15890.62	520.2022	-29911.41	1	29915.93	-89.00365	-1.465858E-006	-0.004425	7
	19	10	12609.37	530.0304	-37537.96	1	37541.7	-89.19105	-1.946572E-006	0.0124557	7
	20	11	10078.13	762.3198	-47054.41	1	47060.58	-89.07185	-1.038198E-006	0.01081	7
	21	11	8015.625	678.4232	-59117.16	1	59121.06	-89.34251	-3.365791E-006	0.0129191	7
	22	12	6328.125	120.7243	-74761.82	1	74761.91	-89.90748	3.477149E-006	-0.0143834	7
	23	13	5015.625	1425.362	-94345.15	1	94355.91	-89.13445	-3.366312E-006	0.0129092	7
	24	13	3984.375	929.3895	-119058.4	1	119062.1	-89.55275	-1.479817E-006	-0.0044133	7
	25	14	3170.956	194.3998	-148886.3	1	148886.5	-89.92519	2.836374E-006	-0.0039067	7
	26	14	2527.573	4653.43	-187853.3	1	187910.9	-88.58098	-1.117142E-007	-0.0051307	6
	27	15	1976.103	4921.963	-240046	1	240096.4	-88.82536	-1.116195E-007	0.0102915	6
	28	15	1577.524	6343.73	-300762	1	300828.9	-88.79169	-3.340182E-007	0.0120557	6
	29	16	1265.625	4196.784	-375158.2	1	375181.7	-89.35908	2.420927E-007	-0.0024871	6
	30	16	998.264	5655.544	-473858.2	1	473891.9	-89.3162	7.274927E-008	0.0050794	6
	31	16	796.875	3886.026	-595881	1	595893.7	-89.62635	2.895802E-007	-0.0140995	6
	32	17	627.7902	2980.36	-754815.1	1	754820.9	-89.77377	2.876276E-007	-0.0140999	6
	33	17	505.5147	5547.206	-936747.4	1	936763.9	-89.66071	-1.10029E-008	-0.000202	6
	34	18	397.9953	49416.82	-1198838	1	1199856	-87.63957	-1.010183E-009	-0.0002645	5
	35	18	315.5048	51259.91	-1510672	1	1511541	-88.05659	-1.149485E-009	-0.0002715	5
	36	19	252.4038	52644	-1880358	1	1881095	-88.39632	-1.190147E-009	-0.0002328	5
	37	19	198.6229	43121.71	-2384399	1	2384789	-88.96392	-1.025132E-009	-0.0002765	5
	38	20	158.3615	56687.43	-2998997	1	2999532	-88.91711	-9.867218E-010	-0.0002527	5
	39	20	125.558	61246.73	-3784000	1	3784496	-89.07271	-1.047888E-009	-0.0002611	5
	40	20	100.4464	-3179.898	-4770198	1	4770199	-90.03819	-1.060587E-008	-0.0002098	6
	41	21	79.00281	-27555.43	-5860732	1	5860797	-90.26939	-1.114948E-009	-0.0002367	5
	42	22	63.3446	107144.4	-7005715	1	7006535	-89.12379	-8.276914E-012	-0.0002531	4
	43	22	49.86702	343271.5	-9.625694E+006	1	9.631813E+006	-87.95758	-1.2973E-010	-0.0002169	4
	44	23	39.72458	370658.4	-1.196741E+007	1	1.197315E+007	-88.22598	-8.780864E-011	-0.0002186	4
	45	23	31.6723	324307.8	-1.531083E+007	1	1.531426E+007	-88.78657	-7.844203E-011	-0.0002331	4
	46	24	24.93351	575623	-1.907838E+007	1	1.908706E+007	-88.27183	-1.10476E-010	-0.0002087	4
	47	24	19.86229	363811.6	-2.389005E+007	1	2.389282E+007	-89.12753	-1.094262E-010	-0.0002516	4
	48	24	15.83615	875019.9	-2.629537E+007	1	2.630993E+007	-88.09409	1.101464E-010	-0.0002454	4
	49	25	12.40079	665710.9	-3.635154E+007	1	3.635764E+007	-88.95085	-5.033127E-011	-0.0002275	4
	50	25	9.93114	103061.8	-4.740356E+007	1	4.740367E+007	-89.87543	-1.054869E-009	-0.0002523	5
	51	26	7.944915	4114714	-6.181217E+007	1	6.194897E+007	-86.19155	-9.947025E-010	-0.0002494	5
	52	27	6.317385	79290.45	-7.462933E+007	1	7.462937E+007	-89.93913	-1.059859E-010	-0.0001905	4
	53	28	5.008013	5122415	-9.59694E+007	1	9.610601E+007	-86.94471	-9.77716E-012	-0.0002219	3
	54	29	3.945707	6191080	-1.202197E+008	1	1.20379E+008	-87.05199	-1.176042E-011	-0.0002013	3
	55	31	3.158693	5327910	-1.503531E+008	1	1.504474E+008	-87.97052	-7.699076E-012	-0.0002446	3
	56	32	2.504006	5123208	-1.894281E+008	1	1.894973E+008	-88.45078	-8.799675E-012	-0.0002245	3
	57	34	1.998082	4998679	-2.365484E+008	1	2.366012E+008	-88.78942	-9.122108E-012	-0.0001329	3
	58	35	1.584686	5690180	-2.978383E+008	1	2.978926E+008	-88.9055	-9.174072E-012	-0.0002738	3
	59	37	1.266892	5412863	-3.73153E+008	1	3.731922E+008	-89.16894	-8.768046E-012	-0.0003234	3
	60	40	0.999041	4315382	-4.726788E+008	1	4.726985E+008	-89.47693	-8.572833E-012	-0.000296	3
